Sample in Buffer	Sample in Window	/UB/fft/xn_index	/UB/fft/xn_re	/UB/fft/xn_im	/UB/fft/xk_index	/UB/fft/xk_re	/UB/fft/xk_im
0	0	00D3	2370	00E0	0040	0008	FF64	
1	1	00D4	1F70	1A14	0041	009E	0101	
2	2	00D5	17F6	107E	0042	01E8	00F3	
3	3	00D6	0DCC	2366	0043	0C46	018C	
4	4	00D7	0240	2276	0044	FD2C	013C	
5	5	00D8	769A	2DD2	0045	FE9B	FF84	
6	6	00D9	6BF6	160C	0046	FEE5	FEAE	
7	7	00DA	6356	1BE4	0047	FEE6	FF3B	
8	8	00DB	5DC0	0063	0048	FE7F	0064	
9	9	00DC	5BF4	44C7	0049	0030	FED8	
10	10	00DD	5E0E	7A53	004A	FF2F	FFEC	
11	11	00DE	63EA	6239	004B	FF14	0079	
12	12	00DF	6CC4	4D77	004C	FE90	FFB4	
13	13	00E0	7792	5C71	004D	003B	001A	
14	14	00E1	0334	5F42	004E	FEFF	FFBF	
15	15	00E2	0EA0	5588	004F	FED1	FE1C	
16	16	00E3	1896	6E98	0050	FC83	00E3	
17	17	00E4	1FDE	698E	0051	FD3C	FE7D	
18	18	00E5	23AA	3542	0052	0142	00B4	
19	19	00E6	238A	006C	0053	0039	0072	
20	20	00E7	1FA6	19C6	0054	0045	0000	
21	21	00E8	184A	1068	0055	0056	FF7C	
22	22	00E9	0E5C	2386	0056	FFED	FF9E	
23	23	00EA	02E0	22B0	0057	007B	0094	
24	24	00EB	7714	2E06	0058	00D6	002C	
25	25	00EC	6C4A	1646	0059	FF30	003C	
26	26	00ED	63A4	1C30	005A	FFB7	0001	
27	27	00EE	5DF6	00D3	005B	003E	FF73	
28	28	00EF	5BFC	4545	005C	FFCB	003E	
29	29	00F0	5DEE	7AE7	005D	FFE8	FE7E	
30	30	00F1	6380	62C7	005E	FDCF	FEB5	
31	31	00F2	6C2E	6DC9	005F	0088	FF4F	
32	32	00F3	76D8	5C75	0060	FF0B	0062	
33	33	00F4	0282	5F04	0061	0004	0042	
34	34	00F5	0E0C	5538	0062	00E5	001F	
35	35	00F6	1820	6E40	0063	FF47	FF48	
36	36	00F7	1F88	6924	0064	00A7	FF6D	
37	37	00F8	237E	74C8	0065	FFDB	00AC	
38	38	00F9	23A2	0FEC	0066	0002	0197	
39	39	00FA	1FDA	0968	0067	FFCD	FF55	
40	40	00FB	18B6	1028	0068	0016	0043	
41	41	00FC	0EFC	237E	0069	FF3F	0076	
42	42	00FD	0392	22E0	006A	0114	006E	
43	43	00FE	77B4	2E9A	006B	0136	FE42	
44	44	00FF	6CC8	1710	006C	FF51	018E	
45	45	0000	63F0	1CFA	006D	0105	FFE3	
46	46	0001	5E1E	016F	006E	FFD0	FF9E	
47	47	0002	5BEA	45BF	006F	FF36	FFCA	
48	48	0003	5D94	7B25	0070	0016	005C	
49	49	0004	6302	62E9	0071	00D2	FFEC	
50	50	0005	6B9E	6DF3	0072	006C	FF53	
51	51	0006	7662	5CA1	0073	FFF2	FFDC	
52	52	0007	0220	5F04	0074	FF2A	00B4	
53	53	0008	0DA8	54D8	0075	FFEC	004E	
54	54	0009	17BE	6D86	0076	00B7	FF7C	
55	55	000A	1F52	6858	0077	FFA9	FFD8	
56	56	000B	236C	341A	0078	FEE3	0010	
57	57	000C	23B4	0F70	0079	0409	05BA	
58	58	000D	2026	0914	007A	FCCE	003C	
59	59	000E	1938	1FEE	007B	FFC7	0112	
60	60	000F	0FA8	1340	007C	002C	FF7F	
61	61	0010	043E	22CA	007D	0006	0058	
62	62	0011	783C	2EA0	007E	FF67	FF33	
63	63	0012	6D2A	1748	007F	0008	00A4	
64	64	0013	642A	1D56	0080	0024	005E	
65	65	0014	5E2E	01DF	0081	FFC9	0024	
66	66	0015	5BEA	463B	0082	FFD1	FF20	
67	67	0016	5D76	7BA7	0083	FF95	0104	
68	68	0017	62A4	634F	0084	0062	FFD8	
69	69	0018	6B24	4E05	0085	0082	0008	
70	70	0019	75D8	5C6D	0086	0061	FF1D	
71	71	001A	01A0	5EA0	0087	0085	FDFF	
72	72	001B	0D2A	5464	0088	FF99	FEBC	
73	73	001C	1750	6D22	0089	FF73	0069	
74	74	001D	1EFA	67E4	008A	FF8D	FFEE	
75	75	001E	2344	33A4	008B	005A	FFDF	
76	76	001F	23B4	0EEC	008C	0059	002E	
77	77	0020	2044	08A0	008D	FF62	0007	
78	78	0021	196C	1FA4	008E	FF89	FFC1	
79	79	0022	1000	1336	008F	FF75	FFBF	
80	80	0023	04C0	22EA	0090	FF8E	FFC5	
81	81	0024	78F2	0F04	0091	FFCD	FFE8	
82	82	0025	6DD8	17D2	0092	FFE9	00C0	
83	83	0026	64C6	1E02	0093	005B	0053	
84	84	0027	5EAC	02A9	0094	0085	FA1A	
85	85	0028	5C1C	46F5	0095	01B4	FDFB	
86	86	0029	5D58	7C33	0096	FF5A	FEC0	
87	87	002A	6250	639B	0097	FFFB	FFBD	
88	88	002B	6A94	4E33	0098	FF94	007A	
89	89	002C	753A	5C79	0099	00A1	FF4B	
90	90	002D	0114	5E7E	009A	0048	00D9	
91	91	002E	0CC0	540C	009B	FFC3	FFFC	
92	92	002F	1706	6CBA	009C	FEF9	FF68	
93	93	0030	1ED0	677C	009D	011C	FF53	
94	94	0031	2332	331A	009E	FFC7	FF50	
95	95	0032	23E8	0E74	009F	FFD3	FEF0	
96	96	0033	20CC	0836	00A0	003C	0015	
97	97	0034	1A18	1F5E	00A1	01E9	0095	
98	98	0035	1088	3322	00A2	F7B0	0368	
99	99	0036	0518	2320	00A3	FF3C	00C6	
100	100	0037	7934	0F4A	00A4	007A	007A	
101	101	0038	6E20	181C	00A5	FF3D	FEDF	
102	102	0039	6506	1E44	00A6	FF3D	FFFE	
103	103	003A	5EC6	02F9	00A7	004E	00C2	
104	104	003B	5C16	0771	00A8	FF4B	0048	
105	105	003C	5D2A	7CC3	00A9	FF66	000A	
106	106	003D	6206	6429	00AA	FF56	FF46	
107	107	003E	6A38	6E73	00AB	FF27	FFDB	
108	108	003F	74B6	5C61	00AC	0039	003F	
109	109	0040	006A	5E20	00AD	0088	FF63	
110	110	0041	0BF6	539C	00AE	FE00	FED7	
111	111	0042	1672	6C3C	00AF	FF62	0389	
112	112	0043	1E82	66EE	00B0	0016	FF54	
113	113	0044	2328	7290	00B1	FEEC	FEEA	
114	114	0045	23F2	0DD2	00B2	0056	009C	
115	115	0046	20E4	07C0	00B3	FF75	FFF6	
116	116	0047	1A58	1F22	00B4	006A	FF34	
117	117	0048	1106	131A	00B5	FF84	0093	
118	118	0049	05CA	2346	00B6	FFEA	006D	
119	119	004A	79EE	2F96	00B7	FF52	FED9	
120	120	004B	6EC2	1880	00B8	006F	FFD4	
121	121	004C	656C	1ED6	00B9	FF20	FF1D	
122	122	004D	5EEC	039B	00BA	FF31	FF8C	
123	123	004E	5C08	07FB	00BB	0025	0014	
124	124	004F	5D18	7D29	00BC	FE49	FE87	
125	125	0050	61E8	646F	00BD	0241	0390	
126	126	0051	69F0	6EB1	00BE	015D	FF51	
127	127	0052	7448	5C99	00BF	FFE5	0025	
128	128	0053	7FD4	5E2F	00C0	003F	FFAC	
129	129	0054	0B7E	5374	00C1	0020	FFDD	
130	130	0055	15F0	6BC6	00C2	FFF6	0030	
131	131	0056	1E0E	6646	00C3	FF46	FF91	
132	132	0057	22E6	71CA	00C4	0008	0066	
133	133	0058	23FA	0D2C	00C5	009E	FFD7	
134	134	0059	212C	0740	00C6	0018	FF88	
135	135	005A	1AB6	1EC4	00C7	000A	FF64	
136	136	005B	116E	12EA	00C8	FF76	0034	
137	137	005C	0646	2342	00C9	FEF7	FF8D	
138	138	005D	7A80	2FC4	00CA	01DA	007D	
139	139	005E	6F52	18F2	00CB	0220	0321	
140	140	005F	65E6	1F74	00CC	01F1	FF34	
141	141	0060	5F2E	0439	00CD	0157	004B	
142	142	0061	5C04	088B	00CE	001A	FFC7	
143	143	0062	5CD0	7DAB	00CF	0135	00BD	
144	144	0063	6176	64B7	00D0	00C8	0016	
145	145	0064	695E	6EAF	00D1	00BA	FF9A	
146	146	0065	73AA	5C61	00D2	0118	FF0F	
147	147	0066	7F4A	5DDF	00D3	01A2	0192	
148	148	0067	0B08	52FA	00D4	0247	0096	
149	149	0068	15A0	6B40	00D5	02E7	003A	
150	150	0069	1DC6	65C4	00D6	0414	0178	
151	151	006A	22B2	7168	00D7	0703	066D	
152	152	006B	23CE	0CDC	00D8	EE1B	F346	
153	153	006C	2126	06E4	00D9	FB75	FDA3	
154	154	006D	1AF4	1E5A	00DA	FCEF	FEF3	
155	155	006E	11F4	12A6	00DB	FF39	FE89	
156	156	006F	06F6	2338	00DC	FEFB	FE39	
157	157	0070	7B24	2018	00DD	FDA3	FF79	
158	158	0071	6FB8	297E	00DE	FE8E	FEC8	
159	159	0072	660A	1016	00DF	FFBE	FEEF	
160	160	0073	5F44	14D7	00E0	0057	FEA8	
161	161	0074	5C1E	48FB	00E1	FF76	FEC1	
162	162	0075	5CE4	7DF1	00E2	FFF8	FF67	
163	163	0076	6140	64FB	00E3	0043	0031	
164	164	0077	68C8	6F0B	00E4	0274	FD3C	
165	165	0078	7300	5C85	00E5	FD25	FF9C	
166	166	0079	7EB4	5DC1	00E6	FE4D	FF53	
167	167	007A	0A96	52B4	00E7	FFCD	FE4B	
168	168	007B	1548	6AC4	00E8	FEEC	FFA9	
169	169	007C	1DA8	652E	00E9	FF66	FEF5	
170	170	007D	22C8	30BE	00EA	002B	FFB0	
171	171	007E	241C	0C4A	00EB	FF3E	FE62	
172	172	007F	2198	0674	00EC	FE47	FE84	
173	173	0080	1B96	1E30	00ED	004B	FE9E	
174	174	0081	1296	12A6	00EE	FFE1	FF93	
175	175	0082	0788	234A	00EF	0024	FEE5	
176	176	0083	7BAC	202C	00F0	0021	FE57	
177	177	0084	7056	29B6	00F1	0026	FFA4	
178	178	0085	66B8	107E	00F2	01B0	FCFF	
179	179	0086	5FCE	157B	00F3	FCCC	FFB8	
180	180	0087	5C5A	09CD	00F4	0089	006D	
181	181	0088	5CD0	7ECB	00F5	FF2D	FEDC	
182	182	0089	60F6	6595	00F6	FFC1	FF6C	
183	183	008A	684C	6F43	00F7	0050	FF5A	
184	184	008B	7254	5C85	00F8	FF35	FF7D	
185	185	008C	7DF8	5D9F	00F9	008F	FE85	
186	186	008D	09E6	525E	00FA	FFDF	FE49	
187	187	008E	14A8	6A60	00FB	FFF1	FF1E	
188	188	008F	1D22	64BA	00FC	005D	FEA9	
189	189	0090	226E	304A	00FD	0109	FE9E	
190	190	0091	2400	0BCE	00FE	FF62	FE28	
191	191	0092	21DE	0608	00FF	0198	FD96	
192	192	0093	1C12	1DDE	0000	7D87	7C54	
193	193	0094	1324	1284	0001	03FA	07C7	
194	194	0095	081C	2376	0002	02E3	0609	
195	195	0096	7C32	209A	0003	FF51	0355	
196	196	0097	70BE	2A3A	0004	008F	0313	
197	197	0098	670E	1104	0005	002A	051C	
198	198	0099	600E	15E7	0006	02D7	041C	
199	199	009A	5C6C	0A37	0007	0124	0554	
200	200	009B	5C94	7F2B	0008	026B	062E	
201	201	009C	60A0	6601	0009	02AE	0790	
202	202	009D	680E	6F97	000A	0119	07F2	
203	203	009E	722C	5CA3	000B	00F6	0A0D	
204	204	009F	7DB2	5D71	000C	010D	155D	
205	205	00A0	095C	5204	000D	0190	4064	
206	206	00A1	13FE	69E2	000E	FFBF	CD42	
207	207	00A2	1C9C	642A	000F	FFE5	F036	
208	208	00A3	2222	7F9C	0010	FFB6	F4AF	
209	209	00A4	23FE	7B2A	0011	FFAB	F61D	
210	210	00A5	2206	058A	0012	FEDB	FB4F	
211	211	00A6	1C52	1DA0	0013	FE5B	FBB5	
212	212	00A7	1372	1276	0014	FF68	FBAE	
213	213	00A8	089A	238E	0015	FD50	FD30	
214	214	00A9	7CEE	20D4	0016	00A7	FE6E	
215	215	00AA	7188	2A8C	0017	FF9C	FC83	
216	216	00AB	6788	117C	0018	025B	FE88	
217	217	00AC	6026	1689	0019	FDBF	014B	
218	218	00AD	5C42	0ABF	001A	FDA3	0324	
219	219	00AE	5C4E	7F91	001B	0373	F9B4	
220	220	00AF	6052	6637	001C	FD67	FF1B	
221	221	00B0	67B2	6FA1	001D	013B	FDFD	
222	222	00B1	71A0	5C91	001E	0062	FE25	
223	223	00B2	7D02	5D5F	001F	FF6E	FE83	
224	224	00B3	08B6	51D4	0020	FDC1	FE7D	
225	225	00B4	1374	6996	0021	02BF	FDCF	
226	226	00B5	1C3E	63A0	0022	FFBA	FE5A	
227	227	00B6	21F6	7F0A	0023	0125	010B	
228	228	00B7	2404	3A96	0024	004F	FF11	
229	229	00B8	2236	0502	0025	014B	FD44	
230	230	00B9	1CAC	1D36	0026	FFFE	FF80	
231	231	00BA	1408	1242	0027	FBAE	00DC	
232	232	00BB	0942	2398	0028	F997	FDB9	
233	233	00BC	7D88	211A	0029	02BA	FFF7	
234	234	00BD	71F8	2AF4	002A	0496	0023	
235	235	00BE	67EA	11E8	002B	020B	FF80	
236	236	00BF	607C	16FD	002C	009D	FDFA	
237	237	00C0	5C72	0B4B	002D	0027	FE09	
238	238	00C1	5C4A	701F	002E	0039	FF52	
239	239	00C2	6002	769B	002F	FFF2	FF84	
240	240	00C3	6722	6FC5	0030	FCB9	FECE	
241	241	00C4	70DE	5C8B	0031	0111	FFB5	
242	242	00C5	7C56	5D27	0032	0191	FFCC	
243	243	00C6	0836	5174	0033	FFF1	FFA4	
244	244	00C7	133E	68F2	0034	FD1D	FFA7	
245	245	00C8	1C32	62FC	0035	FEE2	FE04	
246	246	00C9	2200	7E80	0036	FB27	FA46	
247	247	00CA	2414	7A38	0037	02F9	00E1	
248	248	00CB	2256	04C8	0038	0431	02C0	
249	249	00CC	1CE4	1CFC	0039	FECD	0172	
250	250	00CD	1466	1208	003A	00C1	FF35	
251	251	00CE	09B4	236A	003B	0036	0089	
252	252	00CF	7DEA	2114	003C	0304	0022	
253	253	00D0	7246	2B38	003D	FF79	00A3	
254	254	00D1	6814	126E	003E	02B1	0059	
255	255	00D2	60A4	17B7	003F	02F2	020B	
256	256	00D3	5CA8	4C05	0040	034E	0172	
257	257	00D4	5C62	70C3	0041	008D	00B5	
258	258	00D5	5FCC	771D	0042	02D8	0330	
259	259	00D6	669C	601D	0043	0852	167D	
260	260	00D7	703A	6CA5	0044	FF2A	F956	
261	261	00D8	7BC2	5D19	0045	00C1	0002	
262	262	00D9	07C2	5146	0046	FF3C	FD73	
263	263	00DA	12E4	689C	0047	0082	FCF3	
264	264	00DB	1BCA	6288	0048	FFF0	FE53	
265	265	00DC	21AC	7DF8	0049	00B7	FE60	
266	266	00DD	23FC	39BC	004A	FF28	FE9F	
267	267	00DE	2284	044C	004B	FDBD	FEE7	
268	268	00DF	1D58	1CA6	004C	0002	009D	
269	269	00E0	1504	11DA	004D	FF78	FEAD	
270	270	00E1	0A4A	2382	004E	01E5	FFBF	
271	271	00E2	7E78	2156	004F	FF4C	00F1	
272	272	00E3	72E4	2B9A	0050	FF4D	04B8	
273	273	00E4	68BC	12E4	0051	0751	FAB5	
274	274	00E5	610C	181F	0052	FD1C	0220	
275	275	00E6	5CBC	4C79	0053	FEFD	0024	
276	276	00E7	5C38	712F	0054	FFFC	FEE6	
277	277	00E8	5F8A	7797	0055	FF59	008F	
278	278	00E9	6658	609D	0056	FDF1	002A	
279	279	00EA	6FEA	6CF5	0057	012D	FCF8	
280	280	00EB	7B2E	5D0F	0058	FF8E	FEA3	
281	281	00EC	0704	50E4	0059	0149	0100	
282	282	00ED	1220	6812	005A	0059	0057	
283	283	00EE	1B4A	61E2	005B	0132	FF31	
284	284	00EF	2176	7D66	005C	019C	0016	
285	285	00F0	23F6	3928	005D	FE18	0234	
286	286	00F1	22A8	03DC	005E	FA34	FE47	
287	287	00F2	1DAA	1C60	005F	FF88	02DE	
288	288	00F3	1576	11CC	0060	02C7	FF47	
289	289	00F4	0ADE	23A4	0061	011A	007F	
290	290	00F5	7F1E	219E	0062	022F	FDD0	
291	291	00F6	736C	2BF8	0063	008E	FF44	
292	292	00F7	6912	1360	0064	01B4	FEED	
293	293	00F8	613A	18B2	0065	006E	FED9	
294	294	00F9	5CCA	0D09	0066	FCC2	FFA9	
295	295	00FA	5C10	71B7	0067	0028	0013	
296	296	00FB	5F36	77E7	0068	00AA	FEB5	
297	297	00FC	65FA	60C3	0069	01B4	0128	
298	298	00FD	6F70	4CE3	006A	FD8D	0179	
299	299	00FE	7AA2	5CC7	006B	FDCB	FC72	
300	300	00FF	0680	508A	006C	FCBF	FDC7	
301	301	0000	11AA	67C2	006D	FF76	FE9C	
302	302	0001	1AE2	6198	006E	01B6	0074	
303	303	0002	212E	7CE2	006F	FD5B	00C8	
304	304	0003	23E6	3870	0070	FED6	FF9F	
305	305	0004	22D2	0324	0071	FF19	FEDA	
306	306	0005	1E0E	1BD8	0072	0268	FFB7	
307	307	0006	15E8	1196	0073	FE93	FE35	
308	308	0007	0B60	23B4	0074	01C7	FF8F	
309	309	0008	7FAC	21E8	0075	0157	FFD5	
310	310	0009	740A	2C5E	0076	023C	FFE7	
311	311	000A	69B0	13BC	0077	FECC	FF40	
312	312	000B	61B0	1918	0078	0149	FFB7	
313	313	000C	5CF0	4D8D	0079	0D62	0576	
314	314	000D	5C10	7225	007A	0342	FE24	
315	315	000E	5F1C	7833	007B	01F7	02B4	
316	316	000F	65AC	60CB	007C	FFBF	01A6	
317	317	0010	6F00	4CE3	007D	00C7	FFC0	
318	318	0011	7A2E	5CCF	007E	0184	FFE3	
319	319	0012	05F2	5088	007F	02B3	FF9B	
320	320	0013	112A	6788	0080	FFB9	FF3D	
321	321	0014	1A7A	6116	0081	FDEB	FE9A	
322	322	0015	20F8	7C48	0082	FFFD	0040	
323	323	0016	23E4	37E6	0083	FF0C	00ED	
324	324	0017	22E4	02B4	0084	FF47	00AE	
325	325	0018	1E2E	1B76	0085	0020	00F7	
326	326	0019	1632	112C	0086	FFFE	02FE	
327	327	001A	0BE2	2350	0087	03D8	FE29	
328	328	001B	0056	21CA	0088	00BC	0300	
329	329	001C	74AA	2C9A	0089	0015	FF86	
330	330	001D	6A22	1448	008A	FE9A	FE76	
331	331	001E	61FE	19BE	008B	009B	0013	
332	332	001F	5D10	0E2D	008C	FEA2	0095	
333	333	0020	5C02	72C9	008D	0152	FDBE	
334	334	0021	5ED4	78C3	008E	FF02	FEF1	
335	335	0022	653E	612B	008F	0275	FFA6	
336	336	0023	6E7A	6CFB	0090	010E	0048	
337	337	0024	798C	5CB9	0091	0305	FF6D	
338	338	0025	0554	5044	0092	016C	FFD9	
339	339	0026	10A0	6724	0093	0296	01FF	
340	340	0027	1A24	6082	0094	F5A3	FB4F	
341	341	0028	20E6	7BA2	0095	000A	024C	
342	342	0029	240A	3754	0096	000C	00DC	
343	343	002A	232A	0256	0097	FF4C	FFF0	
344	344	002B	1E88	1B4C	0098	00A7	FFB4	
345	345	002C	16C8	1146	0099	FF6B	00F6	
346	346	002D	0C86	23B2	009A	032F	FEED	
347	347	002E	00D6	223A	009B	0110	FE91	
348	348	002F	7506	2D04	009C	FF35	0003	
349	349	0030	6A60	14C0	009D	FF18	FF68	
350	350	0031	622C	1A44	009E	FEDC	FC7A	
351	351	0032	5D3E	0EC1	009F	01CB	00C0	
352	352	0033	5C1C	7343	00A0	FE17	014A	
353	353	0034	5EB4	7923	00A1	FF7A	FE13	
354	354	0035	64D0	618D	00A2	F3ED	0CF3	
355	355	0036	6DDA	6D4F	00A3	FDB6	0105	
356	356	0037	78EE	5CAD	00A4	FEED	000A	
357	357	0038	04DA	5FC8	00A5	FE8F	0155	
358	358	0039	102E	5654	00A6	FDE4	015B	
359	359	003A	19CA	6FB6	00A7	FE24	00AC	
360	360	003B	20A8	6B0E	00A8	00FA	FF76	
361	361	003C	23EE	16D6	00A9	FE19	FEB0	
362	362	003D	2344	01CE	00AA	0094	0083	
363	363	003E	1EDC	1ACE	00AB	00BF	0067	
364	364	003F	173C	10EA	00AC	0065	00DD	
365	365	0040	0D1E	2384	00AD	FE59	029F	
366	366	0041	0168	2254	00AE	FF1B	00A5	
367	367	0042	7584	2D64	00AF	0400	FB04	
368	368	0043	6ADC	1552	00B0	0258	FE82	
369	369	0044	628A	1AE6	00B1	0448	00A7	
370	370	0045	5D74	0F43	00B2	FEA5	0177	
371	371	0046	5BEE	73B5	00B3	FFCE	FE9A	
372	372	0047	5E3C	797B	00B4	00CB	0007	
373	373	0048	6444	61C5	00B5	034E	0003	
374	374	0049	6D6A	6D57	00B6	0034	0000	
375	375	004A	7882	5CA7	00B7	FE8B	FE5A	
376	376	004B	0456	5FC4	00B8	00BB	FECA	
377	377	004C	0F9E	5656	00B9	FF45	FF84	
378	378	004D	1948	6F8E	00BA	FDD5	FF90	
379	379	004E	204A	6A8E	00BB	FCC4	0042	
380	380	004F	23C0	163A	00BC	FFF8	0208	
381	381	0050	234C	013A	00BD	0A78	FE05	
382	382	0051	1F16	1A66	00BE	04BB	00F7	
383	383	0052	17B0	10B2	00BF	0172	0016	
384	384	0053	0DB6	2376	00C0	FE29	FEDE	
385	385	0054	0216	2262	00C1	0022	0013	
386	386	0055	7636	2DA0	00C2	FFBD	0029	
387	387	0056	6B5A	15B0	00C3	016C	FFEB	
388	388	0057	62E8	1B76	00C4	FE9C	FE23	
389	389	0058	5DA6	0FEB	00C5	02A7	FF88	
390	390	0059	5C04	7457	00C6	00E3	FF48	
391	391	005A	5E2A	79FB	00C7	01C0	FFA9	
392	392	005B	6416	6215	00C8	FF1D	FF30	
393	393	005C	6D08	6D77	00C9	0362	0051	
394	394	005D	780A	5C8B	00CA	FD6C	FB20	
395	395	005E	03BA	5F66	00CB	029B	04C0	
396	396	005F	0F14	75BE	00CC	00E2	01B1	
397	397	0060	18DE	6EEC	00CD	0026	FE93	
398	398	0061	2006	6A08	00CE	0080	FFC6	
399	399	0062	23BA	35CC	00CF	FFDC	00A8	
400	400	0063	238E	00D2	00D0	0368	FE34	
401	401	0064	1F66	1A0C	00D1	01AF	FDEB	
402	402	0065	17E4	1078	00D2	023A	FECF	
403	403	0066	0DDE	2366	00D3	00F9	FD62	
404	404	0067	026C	227E	00D4	00BE	FA9F	
405	405	0068	76C2	0DEE	00D5	0271	FAD0	
406	406	0069	6C08	1628	00D6	0168	FBA6	
407	407	006A	6358	1BFC	00D7	02EF	EC13	
408	408	006B	5DBA	0089	00D8	F64B	2996	
409	409	006C	5BC8	44E9	00D9	FC54	0BE2	
410	410	006D	5DD8	7A79	00DA	FD94	0500	
411	411	006E	63A8	6267	00DB	FE0E	0399	
412	412	006F	6C90	4D9D	00DC	FD96	0515	
413	413	0070	7760	5C71	00DD	FCD1	04EA	
414	414	0071	0318	5F34	00DE	FFFC	01F5	
415	415	0072	0E98	5578	00DF	FCD6	02DB	
416	416	0073	1892	6E90	00E0	0059	0316	
417	417	0074	1FE6	6980	00E1	FF65	01A4	
418	418	0075	23AA	751C	00E2	0038	02A5	
419	419	0076	23A4	002E	00E3	FD7A	0564	
420	420	0077	1FC2	1990	00E4	FCEB	0531	
421	421	0078	1870	1038	00E5	02E6	FC28	
422	422	0079	0E74	235E	00E6	FF8A	0024	
423	423	007A	02FA	22A8	00E7	040E	0140	
424	424	007B	7744	2E46	00E8	FEB4	0247	
425	425	007C	6C84	168E	00E9	FF2A	004D	
426	426	007D	63CC	1C70	00EA	FEB7	011D	
427	427	007E	5E0C	0103	00EB	0357	0136	
428	428	007F	5BFC	4581	00EC	0022	018B	
429	429	0080	5DD0	7B07	00ED	FFFD	0142	
430	430	0081	6350	62DD	00EE	008E	011A	
431	431	0082	6BFC	4DC7	00EF	004E	FF65	
432	432	0083	76C4	5C67	00F0	FD60	021A	
433	433	0084	0278	5EDA	00F1	FA84	01BB	
434	434	0085	0DFE	54F6	00F2	FB86	0104	
435	435	0086	180C	6E00	00F3	06BA	0180	
436	436	0087	1F86	68FA	00F4	063E	0268	
437	437	0088	2396	74A8	00F5	0241	0169	
438	438	0089	23CA	0FD6	00F6	FFB2	00BE	
439	439	008A	2002	0962	00F7	FF51	00F4	
440	440	008B	18D0	1024	00F8	0030	0233	
441	441	008C	0F0E	236A	00F9	FFE1	02B2	
442	442	008D	03AE	22E2	00FA	FDAB	0087	
443	443	008E	77E4	0E9E	00FB	01DD	01AB	
444	444	008F	6CF0	172E	00FC	0168	01AD	
445	445	0090	63EE	1D24	00FD	007F	01AC	
446	446	0091	5E0E	019D	00FE	FD92	0129	
447	447	0092	5BEC	45F3	00FF	0170	0280	
448	448	0093	5DB2	7B69	0000	7F09	7E51	
449	449	0094	62FE	6325	0001	FF3D	F7B6	
450	450	0095	6B6A	6E09	0002	0092	FE54	
451	451	0096	762A	5C8B	0003	FF5D	FCCA	
452	452	0097	0208	5EE6	0004	FE50	FD36	
453	453	0098	0DAC	54C4	0005	FEFD	FC4F	
454	454	0099	17C0	6D86	0006	FD69	FC43	
455	455	009A	1F48	683A	0007	FD98	FA7D	
456	456	009B	2358	13DA	0008	FDBB	F991	
457	457	009C	23AA	0F2C	0009	FD25	F8D2	
458	458	009D	203A	08CC	000A	FCD3	F8E8	
459	459	009E	1958	1FBE	000B	F93B	F336	
460	460	009F	0FC0	1342	000C	F63C	EE4E	
461	461	00A0	0462	22E0	000D	E82A	C50C	
462	462	00A1	7876	2ED0	000E	115F	2F23	
463	463	00A2	6D5C	177C	000F	08B1	0FD9	
464	464	00A3	6452	1D8C	0010	0519	0736	
465	465	00A4	5E5A	0225	0011	033D	0781	
466	466	00A5	5BF8	0675	0012	0251	040F	
467	467	00A6	5D6E	7BCF	0013	0229	0448	
468	468	00A7	62A8	635F	0014	00E7	024A	
469	469	00A8	6B06	4E1B	0015	00F5	036E	
470	470	00A9	759E	5C69	0016	0051	012D	
471	471	00AA	0168	5E8A	0017	0183	02AA	
472	472	00AB	0D0E	5446	0018	FF4C	015E	
473	473	00AC	1744	6D02	0019	003F	0433	
474	474	00AD	1EF8	67C4	001A	FAFF	FE64	
475	475	00AE	233E	3380	001B	FFBE	0350	
476	476	00AF	23B2	0EDE	001C	0210	017C	
477	477	00B0	206A	0896	001D	01A2	01A5	
478	478	00B1	19B0	1F9C	001E	030C	027F	
479	479	00B2	1036	1328	001F	005F	013F	
480	480	00B3	04E4	22E8	0020	017C	0205	
481	481	00B4	790C	0F06	0021	023D	01C4	
482	482	00B5	6DEA	17D2	0022	01B2	012D	
483	483	00B6	64C2	1E10	0023	FE7A	0119	
484	484	00B7	5E90	02C1	0024	029A	0070	
485	485	00B8	5C14	4705	0025	0077	FF65	
486	486	00B9	5D60	7C3D	0026	FF6B	009E	
487	487	00BA	6256	639B	0027	FCE5	FFE8	
488	488	00BB	6A8E	6E35	0028	0527	F97F	
489	489	00BC	7530	5C73	0029	FFAD	0645	
490	490	00BD	00FE	5E58	002A	FE0C	FFE3	
491	491	00BE	0C9A	53D8	002B	FF46	FED0	
492	492	00BF	16D0	6C7C	002C	FD50	0084	
493	493	00C0	1EAE	6730	002D	005F	019F	
494	494	00C1	233E	32DE	002E	FDB0	FF44	
495	495	00C2	240C	0E4C	002F	FF54	00A0	
496	496	00C3	20D4	0822	0030	FFD3	013D	
497	497	00C4	1A08	1F38	0031	0111	00F5	
498	498	00C5	1088	1300	0032	FF1E	002E	
499	499	00C6	0552	2304	0033	0274	0184	
500	500	00C7	7990	2F52	0034	0147	02D8	
501	501	00C8	6E78	182E	0035	026D	FDC4	
502	502	00C9	6534	1E72	0036	0436	005A	
503	503	00CA	5EC4	032F	0037	FB7F	012D	
504	504	00CB	5BF4	679F	0038	00FF	FF29	
505	505	00CC	5D22	7CED	0039	FED8	0128	
506	506	00CD	621E	642B	003A	008B	0069	
507	507	00CE	6A3A	4E65	003B	FED6	0097	
508	508	00CF	749C	5C57	003C	FFC4	0057	
509	509	00D0	0030	5E1E	003D	FE48	020C	
510	510	00D1	0BD6	5398	003E	FEB7	FFB5	
511	511	00D2	1634	6C26	003F	FDC9	01F2	
512	512	00D3	1E40	66C4	0040	FF27	0097	
513	513	00D4	22FE	3258	0041	FCFE	03F3	
514	514	00D5	23F0	0DC6	0042	FB3C	0423	
